!freq-unit  param-type  data-format  keyword  impedance-ohms
# GHZ           S          RI           R         50
!-----------------------------------------------------------------------------
!Freq             ReS11           ImS11           ReS21           ImS21           ReS12           ImS12           ReS22           ImS22
1               -0.47536761     -0.46177188     0.51973001      -0.53914097     0.51973001      -0.53914097     -0.47888435     -0.45812352     
1.001           -0.4767591      -0.46172049     0.51839617      -0.53924045     0.51839617      -0.53924045     -0.48014687     -0.45819622     
1.002           -0.47814635     -0.4616653      0.51706628      -0.53933624     0.51706628      -0.53933624     -0.48140568     -0.45826531     
1.003           -0.47952938     -0.46160633     0.51574034      -0.53942837     0.51574034      -0.53942837     -0.48266079     -0.45833082     
1.004           -0.4809082      -0.46154362     0.51441833      -0.53951688     0.51441833      -0.53951688     -0.4839122      -0.45839278     
1.005           -0.48228281     -0.46147721     0.51310026      -0.5396018      0.51310026      -0.5396018      -0.48515993     -0.45845121     
1.006           -0.48365322     -0.46140712     0.51178611      -0.53968317     0.51178611      -0.53968317     -0.48640396     -0.45850615     
1.007           -0.48501943     -0.46133339     0.51047588      -0.539761       0.51047588      -0.539761       -0.48764432     -0.45855764     
1.008           -0.48638145     -0.46125605     0.50916956      -0.53983534     0.50916956      -0.53983534     -0.488881       -0.45860569     
1.009           -0.4877393      -0.46117515     0.50786715      -0.53990621     0.50786715      -0.53990621     -0.49011401     -0.45865034     
1.01            -0.48909297     -0.4610907      0.50656865      -0.53997366     0.50656865      -0.53997366     -0.49134336     -0.45869163     
1.011           -0.49044247     -0.46100274     0.50527404      -0.5400377      0.50527404      -0.5400377      -0.49256905     -0.45872957     
1.012           -0.49178782     -0.4609113      0.50398331      -0.54009837     0.50398331      -0.54009837     -0.49379108     -0.45876421     
1.013           -0.49312901     -0.46081641     0.50269647      -0.5401557      0.50269647      -0.5401557      -0.49500947     -0.45879556     
1.014           -0.49446606     -0.46071812     0.5014135       -0.54020971     0.5014135       -0.54020971     -0.49622421     -0.45882366     
1.015           -0.49579898     -0.46061643     0.5001344       -0.54026045     0.5001344       -0.54026045     -0.49743532     -0.45884853     
1.016           -0.49712777     -0.4605114      0.49885916      -0.54030794     0.49885916      -0.54030794     -0.4986428      -0.45887022     
1.017           -0.49845244     -0.46040305     0.49758777      -0.54035221     0.49758777      -0.54035221     -0.49984665     -0.45888873     
1.018           -0.499773       -0.4602914      0.49632023      -0.54039329     0.49632023      -0.54039329     -0.50104689     -0.45890411     
1.019           -0.50108945     -0.4601765      0.49505653      -0.5404312      0.49505653      -0.5404312      -0.50224352     -0.45891638     
1.02            -0.50240182     -0.46005836     0.49379667      -0.54046598     0.49379667      -0.54046598     -0.50343654     -0.45892556     
1.021           -0.50371009     -0.45993702     0.49254062      -0.54049766     0.49254062      -0.54049766     -0.50462597     -0.45893169     
1.022           -0.50501429     -0.45981251     0.49128839      -0.54052626     0.49128839      -0.54052626     -0.5058118      -0.4589348      
1.023           -0.50631442     -0.45968486     0.49003998      -0.54055182     0.49003998      -0.54055182     -0.50699405     -0.4589349      
1.024           -0.50761049     -0.4595541      0.48879536      -0.54057435     0.48879536      -0.54057435     -0.50817272     -0.45893203     
1.025           -0.5089025      -0.45942025     0.48755454      -0.54059389     0.48755454      -0.54059389     -0.50934782     -0.45892621     
1.026           -0.51019047     -0.45928335     0.4863175       -0.54061047     0.4863175       -0.54061047     -0.51051935     -0.45891748     
1.027           -0.51147441     -0.45914342     0.48508425      -0.54062411     0.48508425      -0.54062411     -0.51168733     -0.45890585     
1.028           -0.51275432     -0.45900049     0.48385476      -0.54063484     0.48385476      -0.54063484     -0.51285176     -0.45889135     
1.029           -0.51403022     -0.45885459     0.48262903      -0.54064269     0.48262903      -0.54064269     -0.51401264     -0.45887401     
1.03            -0.51530211     -0.45870575     0.48140706      -0.54064768     0.48140706      -0.54064768     -0.51516999     -0.45885385     
1.031           -0.51657        -0.458554       0.48018884      -0.54064984     0.48018884      -0.54064984     -0.51632381     -0.45883091     
1.032           -0.5178339      -0.45839935     0.47897435      -0.5406492      0.47897435      -0.5406492      -0.51747411     -0.4588052      
1.033           -0.51909382     -0.45824185     0.47776359      -0.54064579     0.47776359      -0.54064579     -0.5186209      -0.45877674     
1.034           -0.52034977     -0.45808151     0.47655656      -0.54063962     0.47655656      -0.54063962     -0.51976418     -0.45874558     
1.035           -0.52160176     -0.45791837     0.47535323      -0.54063073     0.47535323      -0.54063073     -0.52090396     -0.45871172     
1.036           -0.5228498      -0.45775244     0.47415361      -0.54061914     0.47415361      -0.54061914     -0.52204025     -0.4586752      
1.037           -0.5240939      -0.45758376     0.47295769      -0.54060487     0.47295769      -0.54060487     -0.52317305     -0.45863604     
1.038           -0.52533406     -0.45741235     0.47176545      -0.54058795     0.47176545      -0.54058795     -0.52430238     -0.45859426     
1.039           -0.5265703      -0.45723824     0.47057689      -0.54056841     0.47057689      -0.54056841     -0.52542824     -0.45854988     
1.04            -0.52780262     -0.45706146     0.46939201      -0.54054627     0.46939201      -0.54054627     -0.52655064     -0.45850294     
1.041           -0.52903104     -0.45688202     0.46821078      -0.54052156     0.46821078      -0.54052156     -0.52766959     -0.45845345     
1.042           -0.53025557     -0.45669995     0.4670332       -0.54049429     0.4670332       -0.54049429     -0.5287851      -0.45840144     
1.043           -0.53147621     -0.45651529     0.46585927      -0.5404645      0.46585927      -0.5404645      -0.52989716     -0.45834694     
1.044           -0.53269298     -0.45632805     0.46468897      -0.54043221     0.46468897      -0.54043221     -0.5310058      -0.45828995     
1.045           -0.53390588     -0.45613825     0.4635223       -0.54039744     0.4635223       -0.54039744     -0.53211102     -0.45823051     
1.046           -0.53511493     -0.45594593     0.46235924      -0.54036021     0.46235924      -0.54036021     -0.53321283     -0.45816865     
1.047           -0.53632013     -0.45575111     0.4611998       -0.54032055     0.4611998       -0.54032055     -0.53431123     -0.45810437     
1.048           -0.5375215      -0.45555381     0.46004395      -0.54027849     0.46004395      -0.54027849     -0.53540624     -0.45803771     
1.049           -0.53871904     -0.45535405     0.45889169      -0.54023404     0.45889169      -0.54023404     -0.53649786     -0.45796869     
1.05            -0.53991277     -0.45515187     0.45774301      -0.54018722     0.45774301      -0.54018722     -0.5375861      -0.45789732     
1.051           -0.5411027      -0.45494727     0.4565979       -0.54013807     0.4565979       -0.54013807     -0.53867097     -0.45782364     
1.052           -0.54228882     -0.45474029     0.45545635      -0.5400866      0.45545635      -0.5400866      -0.53975247     -0.45774765     
1.053           -0.54347117     -0.45453095     0.45431835      -0.54003283     0.45431835      -0.54003283     -0.54083062     -0.4576694      
1.054           -0.54464974     -0.45431927     0.4531839       -0.53997679     0.4531839       -0.53997679     -0.54190543     -0.45758888     
1.055           -0.54582454     -0.45410527     0.45205298      -0.5399185      0.45205298      -0.5399185      -0.54297689     -0.45750614     
1.056           -0.54699559     -0.45388899     0.45092559      -0.53985799     0.45092559      -0.53985799     -0.54404503     -0.45742118     
1.057           -0.5481629      -0.45367043     0.44980171      -0.53979526     0.44980171      -0.53979526     -0.54510985     -0.45733403     
1.058           -0.54932647     -0.45344962     0.44868133      -0.53973035     0.44868133      -0.53973035     -0.54617136     -0.45724471     
1.059           -0.55048632     -0.45322658     0.44756446      -0.53966327     0.44756446      -0.53966327     -0.54722956     -0.45715323     
1.06            -0.55164246     -0.45300134     0.44645107      -0.53959405     0.44645107      -0.53959405     -0.54828447     -0.45705963     
1.061           -0.5527949      -0.45277392     0.44534115      -0.53952271     0.44534115      -0.53952271     -0.54933609     -0.45696392     
1.062           -0.55394364     -0.45254434     0.44423471      -0.53944927     0.44423471      -0.53944927     -0.55038444     -0.45686611     
1.063           -0.5550887      -0.45231261     0.44313172      -0.53937374     0.44313172      -0.53937374     -0.55142952     -0.45676624     
1.064           -0.55623009     -0.45207877     0.44203218      -0.53929615     0.44203218      -0.53929615     -0.55247133     -0.45666432     
1.065           -0.55736783     -0.45184282     0.44093608      -0.53921653     0.44093608      -0.53921653     -0.5535099      -0.45656036     
1.066           -0.55850191     -0.4516048      0.43984341      -0.53913488     0.43984341      -0.53913488     -0.55454523     -0.4564544      
1.067           -0.55963235     -0.45136473     0.43875416      -0.53905123     0.43875416      -0.53905123     -0.55557732     -0.45634644     
1.068           -0.56075916     -0.45112261     0.43766832      -0.5389656      0.43766832      -0.5389656      -0.55660618     -0.4562365      
1.069           -0.56188235     -0.45087848     0.43658588      -0.53887801     0.43658588      -0.53887801     -0.55763183     -0.45612462     
1.07            -0.56300194     -0.45063235     0.43550683      -0.53878848     0.43550683      -0.53878848     -0.55865428     -0.45601079     
1.071           -0.56411793     -0.45038425     0.43443116      -0.53869702     0.43443116      -0.53869702     -0.55967352     -0.45589505     
1.072           -0.56523033     -0.45013419     0.43335886      -0.53860366     0.43335886      -0.53860366     -0.56068958     -0.45577742     
1.073           -0.56633915     -0.44988219     0.43228993      -0.53850842     0.43228993      -0.53850842     -0.56170245     -0.4556579      
1.074           -0.56744441     -0.44962828     0.43122434      -0.53841131     0.43122434      -0.53841131     -0.56271216     -0.45553652     
1.075           -0.56854611     -0.44937246     0.4301621       -0.53831236     0.4301621       -0.53831236     -0.5637187      -0.45541329     
1.076           -0.56964427     -0.44911477     0.42910319      -0.53821158     0.42910319      -0.53821158     -0.56472209     -0.45528824     
1.077           -0.5707389      -0.44885522     0.42804761      -0.53810898     0.42804761      -0.53810898     -0.56572233     -0.45516138     
1.078           -0.57183        -0.44859382     0.42699533      -0.5380046      0.42699533      -0.5380046      -0.56671944     -0.45503273     
1.079           -0.57291759     -0.4483306      0.42594636      -0.53789844     0.42594636      -0.53789844     -0.56771343     -0.4549023      
1.08            -0.57400168     -0.44806558     0.42490068      -0.53779052     0.42490068      -0.53779052     -0.56870429     -0.45477012     
1.081           -0.57508227     -0.44779877     0.42385828      -0.53768087     0.42385828      -0.53768087     -0.56969205     -0.4546362      
1.082           -0.57615939     -0.4475302      0.42281916      -0.5375695      0.42281916      -0.5375695      -0.57067671     -0.45450056     
1.083           -0.57723304     -0.44725987     0.4217833       -0.53745642     0.4217833       -0.53745642     -0.57165828     -0.45436321     
1.084           -0.57830322     -0.44698781     0.4207507       -0.53734166     0.4207507       -0.53734166     -0.57263676     -0.45422418     
1.085           -0.57936996     -0.44671404     0.41972134      -0.53722523     0.41972134      -0.53722523     -0.57361218     -0.45408347     
1.086           -0.58043326     -0.44643857     0.41869521      -0.53710715     0.41869521      -0.53710715     -0.57458453     -0.45394111     
1.087           -0.58149313     -0.44616142     0.4176723       -0.53698743     0.4176723       -0.53698743     -0.57555383     -0.4537971      
1.088           -0.58254959     -0.44588261     0.41665262      -0.5368661      0.41665262      -0.5368661      -0.57652008     -0.45365148     
1.089           -0.58360264     -0.44560215     0.41563613      -0.53674316     0.41563613      -0.53674316     -0.5774833      -0.45350425     
1.09            -0.58465229     -0.44532007     0.41462284      -0.53661864     0.41462284      -0.53661864     -0.57844349     -0.45335542     
1.091           -0.58569856     -0.44503637     0.41361273      -0.53649255     0.41361273      -0.53649255     -0.57940066     -0.45320503     
1.092           -0.58674146     -0.44475108     0.4126058       -0.53636491     0.4126058       -0.53636491     -0.58035482     -0.45305307     
1.093           -0.58778099     -0.44446421     0.41160204      -0.53623574     0.41160204      -0.53623574     -0.58130599     -0.45289957     
1.094           -0.58881717     -0.44417578     0.41060143      -0.53610504     0.41060143      -0.53610504     -0.58225416     -0.45274454     
1.095           -0.58985        -0.44388581     0.40960396      -0.53597284     0.40960396      -0.53597284     -0.58319936     -0.452588       
1.096           -0.59087951     -0.44359431     0.40860963      -0.53583915     0.40860963      -0.53583915     -0.58414158     -0.45242996     
1.097           -0.5919057      -0.44330129     0.40761843      -0.53570399     0.40761843      -0.53570399     -0.58508084     -0.45227043     
1.098           -0.59292857     -0.44300678     0.40663034      -0.53556737     0.40663034      -0.53556737     -0.58601714     -0.45210944     
1.099           -0.59394815     -0.44271078     0.40564535      -0.53542931     0.40564535      -0.53542931     -0.5869505      -0.451947       
1.1             -0.59496443     -0.44241332     0.40466346      -0.53528982     0.40466346      -0.53528982     -0.58788093     -0.45178311     
1.101           -0.59597744     -0.44211441     0.40368466      -0.53514892     0.40368466      -0.53514892     -0.58880842     -0.45161781     
1.102           -0.59698718     -0.44181406     0.40270894      -0.53500662     0.40270894      -0.53500662     -0.58973301     -0.45145109     
1.103           -0.59799366     -0.4415123      0.40173628      -0.53486294     0.40173628      -0.53486294     -0.59065468     -0.45128298     
1.104           -0.5989969      -0.44120913     0.40076667      -0.53471789     0.40076667      -0.53471789     -0.59157345     -0.45111349     
1.105           -0.5999969      -0.44090457     0.39980012      -0.53457149     0.39980012      -0.53457149     -0.59248933     -0.45094263     
1.106           -0.60099368     -0.44059863     0.3988366       -0.53442375     0.3988366       -0.53442375     -0.59340233     -0.45077041     
1.107           -0.60198724     -0.44029134     0.3978761       -0.53427469     0.3978761       -0.53427469     -0.59431246     -0.45059686     
1.108           -0.60297759     -0.43998269     0.39691863      -0.53412431     0.39691863      -0.53412431     -0.59521973     -0.45042199     
1.109           -0.60396476     -0.43967272     0.39596416      -0.53397264     0.39596416      -0.53397264     -0.59612414     -0.4502458      
1.11            -0.60494874     -0.43936143     0.39501269      -0.53381969     0.39501269      -0.53381969     -0.59702571     -0.45006831     
1.111           -0.60592954     -0.43904884     0.39406421      -0.53366547     0.39406421      -0.53366547     -0.59792445     -0.44988954     
1.112           -0.60690719     -0.43873496     0.39311871      -0.53351        0.39311871      -0.53351        -0.59882035     -0.4497095      
1.113           -0.60788168     -0.43841981     0.39217617      -0.53335328     0.39217617      -0.53335328     -0.59971344     -0.44952819     
1.114           -0.60885303     -0.43810339     0.39123659      -0.53319534     0.39123659      -0.53319534     -0.60060372     -0.44934565     
1.115           -0.60982125     -0.43778573     0.39029996      -0.53303618     0.39029996      -0.53303618     -0.6014912      -0.44916187     
1.116           -0.61078635     -0.43746683     0.38936628      -0.53287582     0.38936628      -0.53287582     -0.60237589     -0.44897687     
1.117           -0.61174834     -0.43714672     0.38843552      -0.53271427     0.38843552      -0.53271427     -0.6032578      -0.44879066     
1.118           -0.61270723     -0.43682539     0.38750768      -0.53255155     0.38750768      -0.53255155     -0.60413693     -0.44860326     
1.119           -0.61366303     -0.43650288     0.38658275      -0.53238767     0.38658275      -0.53238767     -0.6050133      -0.44841468     
1.12            -0.61461576     -0.43617918     0.38566072      -0.53222264     0.38566072      -0.53222264     -0.60588692     -0.44822493     
1.121           -0.61556541     -0.43585432     0.38474158      -0.53205647     0.38474158      -0.53205647     -0.60675779     -0.44803403     
1.122           -0.61651201     -0.4355283      0.38382532      -0.53188918     0.38382532      -0.53188918     -0.60762593     -0.44784197     
1.123           -0.61745556     -0.43520114     0.38291194      -0.53172078     0.38291194      -0.53172078     -0.60849134     -0.44764879     
1.124           -0.61839607     -0.43487286     0.38200141      -0.53155128     0.38200141      -0.53155128     -0.60935402     -0.44745448     
1.125           -0.61933355     -0.43454345     0.38109374      -0.53138069     0.38109374      -0.53138069     -0.610214       -0.44725907     
1.126           -0.62026802     -0.43421295     0.38018891      -0.53120903     0.38018891      -0.53120903     -0.61107128     -0.44706256     
1.127           -0.62119948     -0.43388135     0.37928692      -0.5310363      0.37928692      -0.5310363      -0.61192587     -0.44686496     
1.128           -0.62212794     -0.43354867     0.37838774      -0.53086253     0.37838774      -0.53086253     -0.61277777     -0.44666629     
1.129           -0.62305342     -0.43321493     0.37749139      -0.53068771     0.37749139      -0.53068771     -0.613627       -0.44646656     
1.13            -0.62397592     -0.43288013     0.37659783      -0.53051188     0.37659783      -0.53051188     -0.61447356     -0.44626578     
1.131           -0.62489546     -0.43254429     0.37570708      -0.53033502     0.37570708      -0.53033502     -0.61531747     -0.44606396     
1.132           -0.62581204     -0.43220742     0.3748191       -0.53015716     0.3748191       -0.53015716     -0.61615872     -0.44586111     
1.133           -0.62672567     -0.43186953     0.37393391      -0.52997831     0.37393391      -0.52997831     -0.61699734     -0.44565725     
